#Digilent WaveForms Network Analyzer - Bode
#Device Name: Discovery2
#Serial Number: SN:210321A374FA
#Date Time: 2023-12-05 10:58:32.522
#Start: 50 Hz
#Stop: 100000 Hz
#Steps: 151
#Wavegen: Wavegen C1
#Amplification: 1 X
#Settle: 10 ms
#MinPeriods: 16 
#Channel: Channel 1
#Range: 5.44986 V
#Offset: -0.000129861 V
#Relative: no
#Channel: Channel 2
#Range: 5.45616 V
#Offset: -0.00028489 V
#Relative: yes

Frequency (Hz),Channel 1 Magnitude (dB),Channel 2 Magnitude (dB),Channel 2 Phase (deg)
50.00000000000004,-0.00306413256741637,-23.69855413859221,86.17032479869152
52.59892532712838,-0.003151060871915694,-23.26226197847108,85.98777376385182
55.33293891137646,-0.003110950738250662,-22.82333616059012,85.79268969141236
58.20906243860089,-0.003126824800284078,-22.38674804979372,85.55605276102619
61.23468257140239,-0.002775852622125832,-21.95025317864294,85.32894175194919
64.41756992007203,-0.002981024653693938,-21.51394586486515,85.10639459840846
67.76589899961876,-0.00312475154081866,-21.07534387698993,84.84995475379452
71.28826922413329,-0.003036084984859786,-20.64020082288578,84.59461531576551
74.99372699240817,-0.003009476728940206,-20.20414254643718,84.32350541415943
78.89178892153453,-0.002943173330377062,-19.76946120253158,84.03315445894694
82.99246628814731,-0.002991488275152353,-19.33455364118934,83.73108731757065
87.30629074008954,-0.002932151508159764,-18.89952104208735,83.40807770154322
91.84434134453042,-0.002897790169958637,-18.46598474557008,83.07095910202349
96.61827304200484,-0.002876798773460664,-18.03390147729883,82.71835207512476
101.6403465794502,-0.002926017845488037,-17.60161666435615,82.34721013143388
106.9234599991189,-0.002882309177090199,-17.1673712178937,81.96285272086067
112.481181764237,-0.002835965049816431,-16.73567400789768,81.55435430468657
118.3277856064849,-0.003142329635517005,-16.30740337167174,81.12798606608354
124.4782871847991,-0.003044809916469004,-15.87777520531592,80.67465762716027
130.9484826496416,-0.003004209813983867,-15.45010636387363,80.2053659425481
137.7549892117851,-0.003039350671286256,-15.02228133285577,79.71781930895042
144.9152878198011,-0.003027811509864077,-14.59741179330444,79.19426822603658
152.4477680558608,-0.002755837329376971,-14.17221219735709,78.65308553278712
160.3717753651518,-0.002950210853280044,-13.75054651660979,78.08308143306093
168.7076607402124,-0.002915102498319512,-13.33097887897943,77.48736964788158
177.4768329877786,-0.003141875208106481,-12.9128928833057,76.86307062498463
186.7018137123879,-0.003160383425891856,-12.49789679491594,76.20836031723931
196.4062951579463,-0.003261759566553212,-12.08450027666673,75.53209996755442
206.6152010558149,-0.002918430196525419,-11.67437757232205,74.81459309503759
217.3547506356884,-0.003027531709266666,-11.26657512330338,74.06981854797601
228.6525259636632,-0.003153499835569746,-10.86203493756669,73.29359656976055
240.53754278044,-0.003184897792550003,-10.46103896167641,72.48327725285043
253.040325021586,-0.003128507337815602,-10.06232945775965,71.63763852291962
266.1929832112537,-0.003267829565382603,-9.668886631303311,70.75285729052409
280.0292969306853,-0.003114760954483595,-9.280100135813411,69.83700994807867
294.5848015733073,-0.002778722519104033,-8.895013623807104,68.88612773356334
309.8968796092259,-0.003001877835117121,-8.515106406230409,67.8977008951185
326.0048565935151,-0.003069669762905123,-8.140253749317004,66.87456254092746
342.9501021648697,-0.002825676036424157,-7.772104059793508,65.81025300072947
360.77613629402,-0.003373792876195925,-7.408954032635338,64.71130342624295
379.5287410547807,-0.003275717428390364,-7.053420436384624,63.57944875071964
399.2560782047888,-0.003154028384581664,-6.703524959638784,62.40648461236862
420.0088128779159,-0.003120260123150633,-6.363245329614651,61.20885893479266
441.8402437060259,-0.003322067248513542,-6.029268032206557,59.9730909330425
464.806439704269,-0.003168281396663062,-5.704144686589093,58.70446467749969
488.9663842714645,-0.002895589167551935,-5.388016283556361,57.40756177467141
514.3821266754142,-0.003331215336911891,-5.080689595373165,56.08097908420417
541.1189414121915,-0.003683483892276129,-4.782632757452019,54.73296249260768
569.2454958486919,-0.003344549938719797,-4.495728360981909,53.35634539552187
598.8340265789893,-0.003501905895229106,-4.217332892410202,51.96160375325805
629.9605249474363,-0.003393952841596374,-3.950199565891143,50.55602957109316
662.7049322149761,-0.00359877427562296,-3.693524393717769,49.12973562558898
697.1513448699036,-0.003607424801310155,-3.448028222035181,47.69271358002717
733.3882306103825,-0.003788443401922927,-3.212803813273462,46.25023872382526
771.5086555534057,-0.003551217789992639,-2.989256032977214,44.80536793718979
811.6105232537354,-0.003754455843993427,-2.776794798783252,43.3597053312724
853.7968261466949,-0.004150877502382238,-2.575271685925409,41.9211612457276
898.1759100605836,-0.0041322404457623,-2.384603101600324,40.48739673743381
944.8617524780447,-0.004229497637687727,-2.204248292039861,39.06497294220956
993.9742552610448,-0.003447919630384363,-2.035438213827215,37.65659319655313
1045.639552591274,-0.004245938742103711,-1.876536602396053,36.26806485592462
1099.990334916806,-0.003560701618954311,-1.727764592072277,34.89850298806694
1157.166189737039,-0.003800341078555471,-1.589109179497287,33.55467584703447
1217.313960101122,-0.003554126459289225,-1.458646395885138,32.23740437649178
1280.588121740597,-0.002541671498591881,-1.338572533996565,30.94514715542701
1347.151179804823,-0.004310263702924368,-1.2258899385105,29.68817776761665
1417.174086218134,-0.00397076319519557,-1.122111967284535,28.45678574004536
1490.836678730579,-0.002738236114003871,-1.025734515215623,27.26102330007856
1568.328142789876,-0.004259519381556446,-0.9365173551486257,26.1022528921515
1649.84749742077,-0.002908575300235808,-0.8551545976309498,24.9781018331783
1735.604106359693,-0.003297117189038755,-0.7794766002259512,23.88904352246246
1825.818215757417,-0.003098691345434603,-0.7106019562392375,22.83738317947767
1920.721519830699,-0.003408902406367614,-0.6462431966006987,21.81981280036074
2020.557755915668,-0.002648147005439657,-0.5880288392091494,20.83947596007021
2125.583330451165,-0.00205135374775402,-0.5346541544436721,19.89620594906032
2236.067977499791,-0.001108773247608315,-0.4858382458629185,18.98913917776814
2352.295451497888,-0.001387162418025037,-0.4414584536511771,18.11807021690352
2474.56425601362,-0.0009062493168275267,-0.4006478695822447,17.28111151440665
2603.188410384826,-0.0009806918484652639,-0.3625938751902033,16.47761429468692
2738.498256205545,-0.0006446272495903458,-0.3289650577530657,15.70451095332891
2880.841305732534,-0.001457758494610485,-0.2977388320382314,14.97059235190767
3030.583134390649,0.0001640834011583842,-0.2697673725509071,14.26166594103888
3188.108319669363,-1.092688326890968e-05,-0.2437241575642733,13.58884637579545
3353.82142882171,0.001727179633194559,-0.2207247079949397,12.94380070792842
3528.148057902321,0.0006224522370229329,-0.1989802203186905,12.3239433813871
3711.535924813137,0.001687161853784494,-0.1798896101439782,11.73480927256525
3904.456019164011,0.0008450558080061269,-0.1621437359531467,11.17111639191219
4107.403811901288,0.002322568182651901,-0.1458553098746699,10.63671300864431
4320.900527811163,0.0032889980075591,-0.1321341785917475,10.12367580140095
4545.494484165778,0.003117290544838336,-0.1181649441586772,9.63723553258734
4781.762498950186,0.005096507877793916,-0.1062124673317915,9.171077438790263
5030.311372286868,0.005122445877072449,-0.09585183888611409,8.726813248434837
5291.779444862427,0.006237018678998335,-0.08602061839436335,8.305168713584436
5566.83823735903,0.0006814836421039085,-0.07713660923424839,7.900354378274756
5856.194175101007,0.007466329055878781,-0.06899670617559599,7.516029672605271
6160.590402346034,0.009505213500560484,-0.06086804997483516,7.150346143003503
6480.808690880452,-0.0004017593573064888,-0.05463668887897048,6.803320758144588
6817.671447820501,0.0116361354579978,-0.04873971565603261,6.4698923696713
7172.04382777611,0.002112467906180209,-0.04322029614884208,6.152874015818696
7544.835954801747,0.01208613612441686,-0.0377657624187422,5.854677049362977
7937.005259840996,0.01465721315157638,-0.03367199306708971,5.568811123740076
8349.558939668032,0.008645300240696811,-0.02935133003652175,5.2955141154643
8783.556543641114,0.006482421258762497,-0.02624628622464195,5.034298955137857
9240.112694911761,0.01545311203585576,-0.02239882353111389,4.789920473749447
9720.399953078291,0.01795474254559246,-0.01909958099985226,4.556005444133334
10225.65182563573,0.01931481242899187,-0.01690072227521151,4.333411729249946
10757.16593595655,0.02017198207634392,-0.01383232505200571,4.117260560109365
11316.30735593814,0.02013594389993725,-0.01109980340228169,3.916524994400591
11904.51211187646,0.01601824978702492,-0.01020273129933566,3.724583431848162
12523.2908725697,0.01630581054564147,-0.0077120144138635,3.545463773558431
13174.23282912402,0.02494270313598651,-0.006548053288419146,3.367869688965918
13859.00977642595,0.02467313564855269,-0.003551223419283331,3.205210316990076
14579.3804067634,0.02637967161293669,-0.003211323365101293,3.048796284669294
15337.19482662291,0.02578548214656842,-0.00159017967633494,2.901909041780755
16134.39930826316,0.02920184270900064,-0.000498008105298295,2.757892369265114
16973.0412882681,0.02809021993415397,0.001040002040508363,2.621916430027568
17855.27462591758,0.02958510637606801,0.00136768626519658,2.492371386933172
18783.36513488017,0.03065647981097953,0.003252841417481629,2.370508034398227
19759.69640243495,0.03307904372338271,0.003065015217776257,2.250012822805694
20786.77591116805,0.0328783175564718,0.004891851652889316,2.14427961490324
21867.24147886557,0.03388755321423125,0.005281229298690761,2.041514466501951
23003.86803314266,0.03565587385218401,0.005587597325541663,1.939918040398016
24199.57473820771,0.03672017684874581,0.006790424205117301,1.846808947418538
25457.43249206496,0.03629115219252416,0.007536595513429564,1.75318400341817
26780.67181341071,0.02993427936703062,0.007409448261126512,1.661169435064252
28172.69113847842,0.04017674192779579,0.007496707102328573,1.585021068460861
29637.06554914151,0.04175576771623252,0.008160811158918859,1.507756931021575
31177.55595469005,0.04358591346543251,0.008164736236812256,1.432425447113275
32798.11875086215,0.04509470146240166,0.00922614087462572,1.360503749828624
34502.9159809377,0.04582355117293339,0.009583789691084369,1.290661768417273
36296.32602499051,0.04921186909453519,0.009497233030293444,1.230584683501917
38182.95484475158,0.05086708410068178,0.009465975669478308,1.16972451227943
40167.64781296405,0.0415946549949366,0.01098750264417776,1.11688833158334
42255.50215760973,0.05242051600256671,0.01064967315949371,1.059291390296337
44451.88005296846,0.05555695026343174,0.01093768445984082,0.9990760863853154
46762.42239113108,0.05663726021215915,0.01107747202134739,0.9583267723360294
49193.06326933472,0.05938537749035751,0.01173048643316201,0.9060948363540859
51750.04523032875,0.06092820465949289,0.01158798450153592,0.8636166593194972
54439.93529491152,0.06477961477941882,0.01129625615000554,0.8262168403250882
57269.64182781496,0.06692156964088584,0.01210876668893112,0.7798965960156181
60246.43228025251,0.06773234392979065,0.01274213862072872,0.7321201987583947
63377.95185469787,0.07191605184539798,0.01230943284202126,0.7038753705627698
66672.24313983177,0.06990106060491097,0.01267486378047155,0.6535691315091583
70137.76676608314,0.07657755589657009,0.01177732228356045,0.6269597846392543
73783.42313481496,0.07951096123429237,0.01315938455473797,0.5938563598217002
77618.57527696094,0.08081742569815151,0.01142400610076056,0.5656276474983599
81653.07289981916,0.08542036917837184,0.01208204418511362,0.5363158486734676
85897.27768376304,0.08901471310271526,0.01195894010592484,0.5033690833907016
90362.08989383721,0.09056813741108365,0.01175051031077712,0.4745581794063511
95058.97637458397,0.08750123436288426,0.01323005930027299,0.4466645007194217
100000,0.09029828034646187,0.0109449361606453,0.4374929761668547
